CITIFILE A.01.00
#NA VERSION HP8753D.06.14
NAME DATA
VAR FREQ MAG 201
DATA S[1,1] RI
SEG_LIST_BEGIN
SEG 50000000 250000000 201
SEG_LIST_END
BEGIN
4.74670E-1,-8.19824E-1
3.43292E-1,-8.76953E-1
1.80969E-1,-9.08813E-1
-2.88391E-2,-9.06158E-1
-2.55249E-1,-8.53759E-1
-4.98901E-1,-7.09137E-1
-6.82006E-1,-4.42749E-1
-7.96905E-1,-1.19537E-1
-7.51098E-1,2.90649E-1
-5.14831E-1,6.20330E-1
-1.87988E-1,7.98522E-1
1.29455E-1,8.41522E-1
3.95843E-1,7.76641E-1
5.89355E-1,6.59851E-1
7.27539E-1,5.19653E-1
8.21258E-1,3.75122E-1
8.78021E-1,2.34649E-1
9.01001E-1,1.05316E-1
8.99383E-1,-1.64794E-2
8.86566E-1,-1.30462E-1
8.66821E-1,-2.51800E-1
8.12988E-1,-3.64196E-1
7.30590E-1,-4.64294E-1
6.16821E-1,-5.55511E-1
4.85717E-1,-6.20910E-1
3.21319E-1,-6.44561E-1
1.28234E-1,-6.01196E-1
-5.54962E-2,-4.69970E-1
-1.57104E-1,-2.59460E-1
-1.35345E-1,-1.63803E-2
0.01083E-1,1.74285E-1
1.82571E-1,2.63565E-1
3.58337E-1,2.57843E-1
4.94232E-1,1.96655E-1
5.86486E-1,1.10626E-1
6.38061E-1,0.19348E-1
6.62780E-1,-7.52563E-2
6.61499E-1,-1.62963E-1
6.41876E-1,-2.42004E-1
6.05407E-1,-3.12164E-1
5.71319E-1,-3.76586E-1
5.13153E-1,-4.41741E-1
4.29107E-1,-4.89471E-1
3.27514E-1,-5.12237E-1
2.20703E-1,-5.14038E-1
1.16302E-1,-4.77722E-1
0.16021E-1,-4.09942E-1
-6.50329E-2,-3.09494E-1
-9.94567E-2,-1.78924E-1
-9.01794E-2,-3.41911E-2
-3.80020E-2,9.93194E-2
0.54649E-1,1.90994E-1
1.71493E-1,2.43515E-1
2.99194E-1,2.59063E-1
4.06036E-1,2.43866E-1
4.93011E-1,2.06268E-1
5.60211E-1,1.42120E-1
6.14654E-1,0.71411E-1
6.47918E-1,0.01678E-1
6.60766E-1,-6.73217E-2
6.59423E-1,-1.39160E-1
6.51611E-1,-2.06604E-1
6.2854E-1,-2.68463E-1
5.90637E-1,-3.22998E-1
5.38574E-1,-3.77075E-1
4.82147E-1,-4.20013E-1
4.13269E-1,-4.52697E-1
3.27484E-1,-4.62005E-1
2.25494E-1,-4.45739E-1
1.15631E-1,-3.88122E-1
0.24261E-1,-2.62390E-1
1.16958E-2,-8.10394E-2
1.70425E-1,1.46316E-1
5.18341E-1,1.31225E-1
6.54785E-1,-1.74041E-1
5.19165E-1,-4.02832E-1
3.22235E-1,-4.74792E-1
1.60324E-1,-4.31076E-1
0.52520E-1,-3.28369E-1
0.08033E-1,-2.0121E-1
2.43377E-2,-7.95364E-2
8.62846E-2,2.37121E-2
1.64413E-1,0.91095E-1
2.47894E-1,1.23168E-1
3.31100E-1,1.22894E-1
4.07486E-1,1.01165E-1
4.7229E-1,0.67092E-1
5.25726E-1,0.26184E-1
5.57525E-1,-2.31018E-2
5.81054E-1,-7.88269E-2
5.97991E-1,-1.34338E-1
6.04431E-1,-1.84326E-1
6.04705E-1,-2.29461E-1
5.92224E-1,-2.68219E-1
5.72814E-1,-3.10516E-1
5.49408E-1,-3.51104E-1
5.24627E-1,-3.88946E-1
4.97268E-1,-4.13955E-1
4.61792E-1,-4.40948E-1
4.22302E-1,-4.63302E-1
3.82415E-1,-4.77508E-1
3.38073E-1,-4.86312E-1
2.87689E-1,-4.90844E-1
2.40249E-1,-4.93988E-1
1.98883E-1,-4.85870E-1
1.56372E-1,-4.61090E-1
1.04614E-1,-4.27581E-1
0.55450E-1,-3.97949E-1
0.18463E-1,-3.63281E-1
-8.23974E-3,-3.15841E-1
-3.11737E-2,-2.57659E-1
-5.06210E-2,-2.01019E-1
-5.39703E-2,-1.43699E-1
-4.20951E-2,-8.09173E-2
-2.36825E-2,-1.02624E-2
0.51555E-2,5.31158E-2
5.06057E-2,1.11473E-1
1.14860E-1,1.63238E-1
1.97174E-1,2.02774E-1
2.91030E-1,2.18643E-1
3.84567E-1,2.05017E-1
4.61761E-1,1.62750E-1
5.18310E-1,1.02478E-1
5.63507E-1,0.37475E-1
5.87738E-1,-2.16674E-2
6.00860E-1,-6.90612E-2
6.00494E-1,-1.12762E-1
5.96679E-1,-1.59637E-1
5.95825E-1,-2.03155E-1
5.93475E-1,-2.34191E-1
5.77667E-1,-2.62756E-1
5.55755E-1,-2.97210E-1
5.40802E-1,-3.35388E-1
5.27282E-1,-3.61785E-1
5.03967E-1,-3.78143E-1
4.68704E-1,-3.98498E-1
4.40033E-1,-4.22332E-1
4.17099E-1,-4.36111E-1
3.87786E-1,-4.41772E-1
3.51364E-1,-4.47280E-1
3.18450E-1,-4.54193E-1
2.88742E-1,-4.53338E-1
2.56256E-1,-4.44763E-1
2.19986E-1,-4.33090E-1
1.86004E-1,-4.24041E-1
1.58905E-1,-4.06112E-1
1.33483E-1,-3.81591E-1
1.07284E-1,-3.53637E-1
0.89996E-1,-3.25561E-1
0.79177E-1,-2.88345E-1
0.70907E-1,-2.48062E-1
0.66276E-1,-2.08442E-1
0.71716E-1,-1.70440E-1
0.84739E-1,-1.33308E-1
1.02127E-1,-9.46731E-2
1.24893E-1,-6.36138E-2
1.56234E-1,-3.80630E-2
1.88972E-1,-1.53808E-2
2.20077E-1,-4.50134E-4
2.55966E-1,0.04135E-1
2.97012E-1,0.03997E-1
3.37722E-1,0.03311E-1
3.78067E-1,-6.25610E-4
4.07119E-1,-1.31378E-2
4.37561E-1,-2.94189E-2
4.67193E-1,-4.60968E-2
4.94583E-1,-6.79168E-2
5.10101E-1,-9.81445E-2
5.27160E-1,-1.35253E-1
5.45806E-1,-1.67572E-1
5.57952E-1,-1.94213E-1
5.60180E-1,-2.23388E-1
5.57708E-1,-2.58209E-1
5.54504E-1,-2.92694E-1
5.53558E-1,-3.24829E-1
5.51544E-1,-3.52905E-1
5.44158E-1,-3.72528E-1
5.28167E-1,-3.91693E-1
5.01525E-1,-4.17236E-1
4.82727E-1,-4.53277E-1
4.79309E-1,-4.80499E-1
4.68902E-1,-4.89669E-1
4.41101E-1,-4.94812E-1
4.03991E-1,-5.19104E-1
3.81378E-1,-5.47637E-1
3.72436E-1,-5.61279E-1
3.50860E-1,-5.62072E-1
3.15094E-1,-5.69213E-1
2.85308E-1,-5.81543E-1
2.63580E-1,-5.86792E-1
2.33276E-1,-5.85693E-1
1.97418E-1,-5.83129E-1
1.66595E-1,-5.84869E-1
1.41815E-1,-5.79254E-1
1.12457E-1,-5.64056E-1
0.78277E-1,-5.48492E-1
0.49408E-1,-5.33508E-1
0.24932E-1,-5.09948E-1
-2.86865E-3,-4.80773E-1
-3.24249E-2,-4.53674E-1
-5.05676E-2,-4.28710E-1
END

