CITIFILE A.01.00
#NA VERSION HP8753D.06.14
NAME DATA
VAR FREQ MAG 201
DATA S[1,1] RI
SEG_LIST_BEGIN
SEG 50000000 250000000 201
SEG_LIST_END
BEGIN
4.74792E-1,-8.19641E-1
3.43658E-1,-8.7677E-1
1.80236E-1,-9.08996E-1
-2.92358E-2,-9.05578E-1
-2.55859E-1,-8.54614E-1
-4.98535E-1,-7.08160E-1
-6.82251E-1,-4.42260E-1
-7.98553E-1,-1.18804E-1
-7.50976E-1,2.90161E-1
-5.14648E-1,6.21917E-1
-1.87927E-1,7.99621E-1
1.29577E-1,8.43078E-1
3.95233E-1,7.76245E-1
5.88867E-1,6.59515E-1
7.27142E-1,5.18219E-1
8.20251E-1,3.75366E-1
8.77594E-1,2.33551E-1
9.00116E-1,1.03729E-1
8.98590E-1,-1.62658E-2
8.86901E-1,-1.30889E-1
8.65448E-1,-2.51556E-1
8.11523E-1,-3.65081E-1
7.29614E-1,-4.65637E-1
6.16058E-1,-5.55938E-1
4.84558E-1,-6.21276E-1
3.20098E-1,-6.44958E-1
1.27014E-1,-6.01440E-1
-5.61065E-2,-4.70123E-1
-1.56860E-1,-2.59094E-1
-1.35749E-1,-1.61056E-2
0.01220E-1,1.75033E-1
1.82510E-1,2.64160E-1
3.57605E-1,2.57873E-1
4.93103E-1,1.96472E-1
5.85449E-1,1.09680E-1
6.36291E-1,0.17822E-1
6.61224E-1,-7.60192E-2
6.61010E-1,-1.64428E-1
6.40899E-1,-2.44293E-1
6.05133E-1,-3.12683E-1
5.71594E-1,-3.75396E-1
5.12756E-1,-4.42260E-1
4.28741E-1,-4.90295E-1
3.27819E-1,-5.12725E-1
2.19329E-1,-5.12725E-1
1.14608E-1,-4.77188E-1
0.14617E-1,-4.10430E-1
-6.63147E-2,-3.08822E-1
-9.89837E-2,-1.79580E-1
-9.07669E-2,-3.34281E-2
-3.68881E-2,9.95864E-2
0.55107E-1,1.91360E-1
1.70608E-1,2.44308E-1
2.98065E-1,2.59338E-1
4.04785E-1,2.42889E-1
4.92981E-1,2.04971E-1
5.60302E-1,1.41693E-1
6.13555E-1,0.71289E-1
6.46453E-1,-2.44140E-4
6.59362E-1,-6.90918E-2
6.59668E-1,-1.41693E-1
6.51123E-1,-2.07336E-1
6.28509E-1,-2.69592E-1
5.89599E-1,-3.24279E-1
5.38147E-1,-3.76556E-1
4.80590E-1,-4.20776E-1
4.11285E-1,-4.52636E-1
3.25927E-1,-4.61944E-1
2.25250E-1,-4.46197E-1
1.15280E-1,-3.8797E-1
0.24627E-1,-2.61322E-1
0.92010E-2,-8.05244E-2
1.68014E-1,1.46911E-1
5.18158E-1,1.30310E-1
6.53656E-1,-1.75903E-1
5.17974E-1,-4.03076E-1
3.21502E-1,-4.74548E-1
1.59759E-1,-4.29580E-1
0.51239E-1,-3.27270E-1
0.07141E-1,-2.00912E-1
2.32620E-2,-8.00705E-2
8.58802E-2,2.27203E-2
1.63963E-1,0.90316E-1
2.48031E-1,1.21841E-1
3.31710E-1,1.21643E-1
4.08279E-1,1.00418E-1
4.72198E-1,0.67016E-1
5.24200E-1,0.27008E-1
5.58136E-1,-2.5177E-2
5.82489E-1,-7.96814E-2
5.97137E-1,-1.34094E-1
6.03637E-1,-1.85272E-1
6.02874E-1,-2.31262E-1
5.92285E-1,-2.70019E-1
5.72357E-1,-3.10913E-1
5.48278E-1,-3.51989E-1
5.23620E-1,-3.89404E-1
4.96276E-1,-4.14596E-1
4.60723E-1,-4.39849E-1
4.20913E-1,-4.63790E-1
3.80920E-1,-4.79064E-1
3.37539E-1,-4.87411E-1
2.86499E-1,-4.90203E-1
2.37319E-1,-4.92813E-1
1.96167E-1,-4.85961E-1
1.55059E-1,-4.61944E-1
1.05133E-1,-4.27734E-1
0.54138E-1,-3.96820E-1
0.16265E-1,-3.62518E-1
-9.70459E-3,-3.14758E-1
-3.28521E-2,-2.57125E-1
-5.25207E-2,-1.99394E-1
-5.59234E-2,-1.43379E-1
-4.35829E-2,-8.13751E-2
-2.43530E-2,-1.15661E-2
0.53253E-2,5.23662E-2
5.06286E-2,1.10725E-1
1.15341E-1,1.62231E-1
1.97876E-1,2.01675E-1
2.91671E-1,2.17895E-1
3.85040E-1,2.03476E-1
4.6315E-1,1.61377E-1
5.19897E-1,1.01867E-1
5.63079E-1,0.38208E-1
5.87432E-1,-2.24914E-2
6.00097E-1,-7.09533E-2
6.01043E-1,-1.15875E-1
5.95947E-1,-1.60858E-1
5.93994E-1,-2.03094E-1
5.92071E-1,-2.36175E-1
5.78216E-1,-2.64984E-1
5.56274E-1,-2.97882E-1
5.40039E-1,-3.35357E-1
5.25482E-1,-3.61114E-1
5.01312E-1,-3.79241E-1
4.68780E-1,-3.99658E-1
4.38964E-1,-4.22119E-1
4.13894E-1,-4.36187E-1
3.84063E-1,-4.42016E-1
3.48022E-1,-4.48272E-1
3.17138E-1,-4.55078E-1
2.88635E-1,-4.55276E-1
2.55798E-1,-4.45922E-1
2.19284E-1,-4.33273E-1
1.84845E-1,-4.22393E-1
1.56311E-1,-4.05609E-1
1.29882E-1,-3.81897E-1
1.05560E-1,-3.54126E-1
0.85540E-1,-3.25836E-1
0.77392E-1,-2.90008E-1
0.71060E-1,-2.49511E-1
0.67077E-1,-2.09198E-1
0.71762E-1,-1.70669E-1
0.83953E-1,-1.30828E-1
1.01310E-1,-9.44366E-2
1.24523E-1,-6.43539E-2
1.56326E-1,-3.81774E-2
1.88133E-1,-1.53350E-2
2.19627E-1,-1.33514E-3
2.56103E-1,0.0354E-1
2.97271E-1,0.03952E-1
3.36990E-1,0.03372E-1
3.76861E-1,-2.07519E-3
4.06677E-1,-1.58844E-2
4.38476E-1,-3.20739E-2
4.68933E-1,-4.74395E-2
4.95437E-1,-6.82983E-2
5.09185E-1,-9.73205E-2
5.25238E-1,-1.35009E-1
5.43823E-1,-1.69342E-1
5.57159E-1,-1.95922E-1
5.58258E-1,-2.25433E-1
5.56671E-1,-2.58209E-1
5.54107E-1,-2.94067E-1
5.51635E-1,-3.26446E-1
5.49255E-1,-3.54339E-1
5.43884E-1,-3.73901E-1
5.27221E-1,-3.92303E-1
5.00732E-1,-4.19067E-1
4.80484E-1,-4.53460E-1
4.75067E-1,-4.81048E-1
4.66033E-1,-4.90676E-1
4.38690E-1,-4.97863E-1
4.03839E-1,-5.20721E-1
3.82812E-1,-5.48339E-1
3.72192E-1,-5.60028E-1
3.47137E-1,-5.61676E-1
3.13140E-1,-5.70037E-1
2.83630E-1,-5.83038E-1
2.61901E-1,-5.87921E-1
2.31109E-1,-5.84472E-1
1.94091E-1,-5.83252E-1
1.63452E-1,-5.86944E-1
1.39648E-1,-5.80383E-1
1.11084E-1,-5.64209E-1
0.76568E-1,-5.48614E-1
0.46966E-1,-5.34576E-1
0.23376E-1,-5.10925E-1
-4.02832E-3,-4.80957E-1
-3.39202E-2,-4.52911E-1
-5.32226E-2,-4.27795E-1
END

